T411C 000:031.179   SEGGER J-Link V6.86 Log File
T411C 000:031.290   DLL Compiled: Sep 24 2020 17:31:31
T411C 000:031.295   Logging started @ 2023-12-11 08:33
T411C 000:031.299 - 31.301ms
T411C 000:031.307 JLINK_SetWarnOutHandler(...)
T411C 000:031.312 - 0.007ms
T411C 000:031.318 JLINK_OpenEx(...)
T411C 000:032.370   Firmware: J-Link ARM-OB STM32 compiled Aug 22 2012 19:52:04
T411C 000:034.386   Hardware: V7.00
T411C 000:034.397   S/N: 20090928
T411C 000:034.403   OEM: SEGGER
T411C 000:034.410   Feature(s): RDI,FlashDL,FlashBP,JFlash,GDB
T411C 000:035.350   TELNET listener socket opened on port 19021
T411C 000:035.415   WEBSRV Starting webserver
T411C 000:035.555   WEBSRV Webserver running on local port 19080
T411C 000:035.564 - 4.248ms returns "O.K."
T411C 000:035.577 JLINK_GetEmuCaps()
T411C 000:035.582 - 0.006ms returns 0x88EA5833
T411C 000:035.591 JLINK_TIF_GetAvailable(...)
T411C 000:035.798 - 0.211ms
T411C 000:035.808 JLINK_SetErrorOutHandler(...)
T411C 000:035.813 - 0.006ms
T411C 000:035.825 JLINK_ExecCommand("ProjectFile = "D:\界面\wifi连接 上报数据\JLinkSettings.ini"", ...). 
T411C 000:044.467 - 8.652ms returns 0x00
T411C 000:045.466 JLINK_ExecCommand("Device = STM32F103C8", ...). 
T411C 000:049.007   Device "STM32F103C8" selected.
T411C 000:049.305 - 3.834ms returns 0x00
T411C 000:049.326 JLINK_GetHardwareVersion()
T411C 000:049.330 - 0.006ms returns 70000
T411C 000:049.340 JLINK_GetDLLVersion()
T411C 000:049.345 - 0.006ms returns 68600
T411C 000:049.351 JLINK_GetOEMString(...)
T411C 000:049.356 JLINK_GetFirmwareString(...)
T411C 000:049.361 - 0.006ms
T411C 000:056.140 JLINK_GetDLLVersion()
T411C 000:056.157 - 0.019ms returns 68600
T411C 000:056.163 JLINK_GetCompileDateTime()
T411C 000:056.167 - 0.006ms
T411C 000:057.957 JLINK_GetFirmwareString(...)
T411C 000:057.968 - 0.012ms
T411C 000:059.450 JLINK_GetHardwareVersion()
T411C 000:059.459 - 0.011ms returns 70000
T411C 000:060.927 JLINK_GetSN()
T411C 000:060.936 - 0.011ms returns 20090928
T411C 000:062.557 JLINK_GetOEMString(...)
T411C 000:065.530 JLINK_TIF_Select(JLINKARM_TIF_SWD)
T411C 000:066.374 - 0.852ms returns 0x00
T411C 000:066.388 JLINK_HasError()
T411C 000:066.400 JLINK_SetSpeed(5000)
T411C 000:066.541 - 0.147ms
T411C 000:066.554 JLINK_GetId()
T411C 000:069.368   Found SW-DP with ID 0x1BA01477
T411C 000:088.157   Found SW-DP with ID 0x1BA01477
T411C 000:091.463   Old FW that does not support reading DPIDR via DAP jobs
T411C 000:097.262   Unknown DP version. Assuming DPv0
T411C 000:098.780   Scanning AP map to find all available APs
T411C 000:103.215   AP[1]: Stopped AP scan as end of AP map has been reached
T411C 000:104.741   AP[0]: AHB-AP (IDR: 0x14770011)
T411C 000:107.157   Iterating through AP map to find AHB-AP to use
T411C 000:113.552   AP[0]: Core found
T411C 000:115.074   AP[0]: AHB-AP ROM base: 0xE00FF000
T411C 000:119.443   CPUID register: 0x411FC231. Implementer code: 0x41 (ARM)
T411C 000:121.184   Found Cortex-M3 r1p1, Little endian.
T411C 000:222.694   -- Max. mem block: 0x00002C18
T411C 000:222.769   CPU_ReadMem(4 bytes @ 0xE000EDF0)
T411C 000:223.780   CPU_ReadMem(4 bytes @ 0xE0002000)
T411C 000:226.174   FPUnit: 6 code (BP) slots and 2 literal slots
T411C 000:226.189   CPU_ReadMem(4 bytes @ 0xE000EDFC)
T411C 000:226.828   CPU_WriteMem(4 bytes @ 0xE000EDFC)
T411C 000:227.370   CPU_ReadMem(4 bytes @ 0xE0001000)
T411C 000:227.856   CPU_WriteMem(4 bytes @ 0xE0001000)
T411C 000:228.390   CPU_ReadMem(4 bytes @ 0xE000ED88)
T411C 000:228.852   CPU_WriteMem(4 bytes @ 0xE000ED88)
T411C 000:229.375   CPU_ReadMem(4 bytes @ 0xE000ED88)
T411C 000:229.893   CPU_WriteMem(4 bytes @ 0xE000ED88)
T411C 000:231.984   CoreSight components:
T411C 000:233.534   ROMTbl[0] @ E00FF000
T411C 000:233.548   CPU_ReadMem(64 bytes @ 0xE00FF000)
T411C 000:234.597   CPU_ReadMem(32 bytes @ 0xE000EFE0)
T411C 000:237.027   ROMTbl[0][0]: E000E000, CID: B105E00D, PID: 001BB000 SCS
T411C 000:237.042   CPU_ReadMem(32 bytes @ 0xE0001FE0)
T411C 000:239.347   ROMTbl[0][1]: E0001000, CID: B105E00D, PID: 001BB002 DWT
T411C 000:239.409   CPU_ReadMem(32 bytes @ 0xE0002FE0)
T411C 000:241.824   ROMTbl[0][2]: E0002000, CID: B105E00D, PID: 000BB003 FPB
T411C 000:241.836   CPU_ReadMem(32 bytes @ 0xE0000FE0)
T411C 000:244.283   ROMTbl[0][3]: E0000000, CID: B105E00D, PID: 001BB001 ITM
T411C 000:244.299   CPU_ReadMem(32 bytes @ 0xE0040FE0)
T411C 000:246.706   ROMTbl[0][4]: E0040000, CID: B105900D, PID: 001BB923 TPIU-Lite
T411C 000:247.154 - 180.605ms returns 0x1BA01477
T411C 000:247.169 JLINK_GetDLLVersion()
T411C 000:247.173 - 0.006ms returns 68600
T411C 000:247.180 JLINK_CORE_GetFound()
T411C 000:247.184 - 0.006ms returns 0x30000FF
T411C 000:247.191 JLINK_GetDebugInfo(0x100 = JLINKARM_ROM_TABLE_ADDR_INDEX)
T411C 000:247.196   Value=0xE00FF000
T411C 000:247.202 - 0.013ms returns 0
T411C 000:248.755 JLINK_GetDebugInfo(0x100 = JLINKARM_ROM_TABLE_ADDR_INDEX)
T411C 000:248.767   Value=0xE00FF000
T411C 000:248.773 - 0.019ms returns 0
T411C 000:248.779 JLINK_GetDebugInfo(0x101 = JLINKARM_DEBUG_INFO_ETM_ADDR_INDEX)
T411C 000:248.783   Value=0x00000000
T411C 000:248.789 - 0.012ms returns 0
T411C 000:248.800 JLINK_ReadMemEx(0xE0041FF0, 0x10 Bytes, Flags = 0x02000004)
T411C 000:248.825   CPU_ReadMem(16 bytes @ 0xE0041FF0)
T411C 000:249.392   Data:  00 00 00 00 00 00 00 00 00 00 00 00 00 00 00 00
T411C 000:249.402 - 0.604ms returns 16 (0x10)
T411C 000:249.409 JLINK_GetDebugInfo(0x102 = JLINKARM_DEBUG_INFO_MTB_ADDR_INDEX)
T411C 000:249.414   Value=0x00000000
T411C 000:249.420 - 0.012ms returns 0
T411C 000:249.425 JLINK_GetDebugInfo(0x103 = JLINKARM_DEBUG_INFO_TPIU_ADDR_INDEX)
T411C 000:249.430   Value=0xE0040000
T411C 000:249.436 - 0.012ms returns 0
T411C 000:249.441 JLINK_GetDebugInfo(0x104 = JLINKARM_DEBUG_INFO_ITM_ADDR_INDEX)
T411C 000:249.446   Value=0xE0000000
T411C 000:249.452 - 0.012ms returns 0
T411C 000:249.457 JLINK_GetDebugInfo(0x105 = JLINKARM_DEBUG_INFO_DWT_ADDR_INDEX)
T411C 000:249.461   Value=0xE0001000
T411C 000:249.467 - 0.012ms returns 0
T411C 000:249.473 JLINK_GetDebugInfo(0x106 = JLINKARM_DEBUG_INFO_FPB_ADDR_INDEX)
T411C 000:249.477   Value=0xE0002000
T411C 000:249.483 - 0.012ms returns 0
T411C 000:249.489 JLINK_GetDebugInfo(0x107 = JLINKARM_DEBUG_INFO_NVIC_ADDR_INDEX)
T411C 000:249.493   Value=0xE000E000
T411C 000:249.499 - 0.012ms returns 0
T411C 000:249.504 JLINK_GetDebugInfo(0x10C = JLINKARM_DEBUG_INFO_DBG_ADDR_INDEX)
T411C 000:249.509   Value=0xE000EDF0
T411C 000:249.515 - 0.012ms returns 0
T411C 000:249.520 JLINK_GetDebugInfo(0x01 = Unknown)
T411C 000:249.525   Value=0x00000000
T411C 000:249.531 - 0.012ms returns 0
T411C 000:249.536 JLINK_ReadMemU32(0xE000ED00, 0x1 Items)
T411C 000:249.545   CPU_ReadMem(4 bytes @ 0xE000ED00)
T411C 000:249.991   Data:  31 C2 1F 41
T411C 000:250.000   Debug reg: CPUID
T411C 000:250.005 - 0.471ms returns 1 (0x1)
T411C 000:250.012 JLINK_GetDebugInfo(0x10F = JLINKARM_DEBUG_INFO_HAS_CORTEX_M_SECURITY_EXT_INDEX)
T411C 000:250.017   Value=0x00000000
T411C 000:250.023 - 0.013ms returns 0
T411C 000:250.029 JLINK_HasError()
T411C 000:250.035 JLINK_SetResetType(JLINKARM_CM3_RESET_TYPE_NORMAL)
T411C 000:250.039 - 0.006ms returns JLINKARM_CM3_RESET_TYPE_NORMAL
T411C 000:250.045 JLINK_Reset()
T411C 000:250.056   CPU is running
T411C 000:250.064   CPU_WriteMem(4 bytes @ 0xE000EDF0)
T411C 000:250.759   CPU is running
T411C 000:250.767   CPU_WriteMem(4 bytes @ 0xE000EDFC)
T411C 000:253.121   Reset: Halt core after reset via DEMCR.VC_CORERESET.
T411C 000:255.143   Reset: Reset device via AIRCR.SYSRESETREQ.
T411C 000:255.155   CPU is running
T411C 000:255.163   CPU_WriteMem(4 bytes @ 0xE000ED0C)
T411C 000:308.189   CPU_ReadMem(4 bytes @ 0xE000EDF0)
T411C 000:309.080   CPU_ReadMem(4 bytes @ 0xE000EDF0)
T411C 000:309.655   CPU is running
T411C 000:309.670   CPU_WriteMem(4 bytes @ 0xE000EDF0)
T411C 000:310.214   CPU is running
T411C 000:310.265   CPU_WriteMem(4 bytes @ 0xE000EDFC)
T411C 000:315.966   CPU_ReadMem(4 bytes @ 0xE000EDF0)
T411C 000:319.686   CPU_WriteMem(4 bytes @ 0xE0002000)
T411C 000:320.236   CPU_ReadMem(4 bytes @ 0xE000EDFC)
T411C 000:320.863   CPU_ReadMem(4 bytes @ 0xE0001000)
T411C 000:321.368 - 71.354ms
T411C 000:321.412 JLINK_Halt()
T411C 000:321.417 - 0.007ms returns 0x00
T411C 000:321.424 JLINK_ReadMemU32(0xE000EDF0, 0x1 Items)
T411C 000:321.433   CPU_ReadMem(4 bytes @ 0xE000EDF0)
T411C 000:321.898   Data:  03 00 03 00
T411C 000:321.906   Debug reg: DHCSR
T411C 000:321.912 - 0.490ms returns 1 (0x1)
T411C 000:321.952 JLINK_WriteU32_64(0xE000EDF0, 0xA05F0003)
T411C 000:321.959   Debug reg: DHCSR
T411C 000:321.973   CPU_WriteMem(4 bytes @ 0xE000EDF0)
T411C 000:322.501 - 0.566ms returns 0 (0x00000000)
T411C 000:322.555 JLINK_WriteU32_64(0xE000EDFC, 0x01000000)
T411C 000:322.560   Debug reg: DEMCR
T411C 000:322.569   CPU_WriteMem(4 bytes @ 0xE000EDFC)
T411C 000:323.119 - 0.568ms returns 0 (0x00000000)
T411C 000:329.369 JLINK_GetHWStatus(...)
T411C 000:329.606 - 0.241ms returns 0
T411C 000:334.277 JLINK_GetNumBPUnits(Type = 0xFFFFFF00)
T411C 000:334.294 - 0.019ms returns 0x06
T411C 000:334.300 JLINK_GetNumBPUnits(Type = 0xF0)
T411C 000:334.304 - 0.006ms returns 0x2000
T411C 000:334.310 JLINK_GetNumWPUnits()
T411C 000:334.314 - 0.006ms returns 4
T411C 000:339.511 JLINK_GetSpeed()
T411C 000:339.523 - 0.014ms returns 4000
T411C 000:342.446 JLINK_ReadMemU32(0xE000E004, 0x1 Items)
T411C 000:342.472   CPU_ReadMem(4 bytes @ 0xE000E004)
T411C 000:342.967   Data:  01 00 00 00
T411C 000:342.978 - 0.534ms returns 1 (0x1)
T411C 000:342.985 JLINK_ReadMemU32(0xE000E004, 0x1 Items)
T411C 000:342.994   CPU_ReadMem(4 bytes @ 0xE000E004)
T411C 000:343.554   Data:  01 00 00 00
T411C 000:343.565 - 0.581ms returns 1 (0x1)
T411C 000:343.572 JLINK_WriteMemEx(0xE0001000, 0x0000001C Bytes, Flags = 0x02000004)
T411C 000:343.578   Data:  01 00 00 00 00 00 00 00 00 00 00 00 00 00 00 00 ...
T411C 000:343.801   CPU_WriteMem(28 bytes @ 0xE0001000)
T411C 000:344.608 - 1.055ms returns 0x1C
T411C 000:344.661 JLINK_Halt()
T411C 000:344.666 - 0.006ms returns 0x00
T411C 000:344.671 JLINK_IsHalted()
T411C 000:344.676 - 0.007ms returns TRUE
T411C 000:346.935 JLINK_WriteMem(0x20000000, 0x164 Bytes, ...)
T411C 000:346.944   Data:  00 BE 0A E0 0D 78 2D 06 68 40 08 24 40 00 00 D3 ...
T411C 000:347.146   CPU_WriteMem(356 bytes @ 0x20000000)
T411C 000:351.868 - 4.944ms returns 0x164
T411C 000:351.918 JLINK_HasError()
T411C 000:351.927 JLINK_WriteReg(R0, 0x08000000)
T411C 000:351.935 - 0.010ms returns 0
T411C 000:351.941 JLINK_WriteReg(R1, 0x00B71B00)
T411C 000:351.945 - 0.007ms returns 0
T411C 000:351.951 JLINK_WriteReg(R2, 0x00000001)
T411C 000:351.956 - 0.006ms returns 0
T411C 000:351.961 JLINK_WriteReg(R3, 0x00000000)
T411C 000:351.966 - 0.006ms returns 0
T411C 000:351.971 JLINK_WriteReg(R4, 0x00000000)
T411C 000:351.976 - 0.006ms returns 0
T411C 000:351.981 JLINK_WriteReg(R5, 0x00000000)
T411C 000:351.985 - 0.006ms returns 0
T411C 000:351.991 JLINK_WriteReg(R6, 0x00000000)
T411C 000:351.995 - 0.006ms returns 0
T411C 000:352.001 JLINK_WriteReg(R7, 0x00000000)
T411C 000:352.005 - 0.006ms returns 0
T411C 000:352.011 JLINK_WriteReg(R8, 0x00000000)
T411C 000:352.022 - 0.013ms returns 0
T411C 000:352.027 JLINK_WriteReg(R9, 0x20000160)
T411C 000:352.032 - 0.006ms returns 0
T411C 000:352.037 JLINK_WriteReg(R10, 0x00000000)
T411C 000:352.042 - 0.006ms returns 0
T411C 000:352.047 JLINK_WriteReg(R11, 0x00000000)
T411C 000:352.052 - 0.006ms returns 0
T411C 000:352.057 JLINK_WriteReg(R12, 0x00000000)
T411C 000:352.062 - 0.006ms returns 0
T411C 000:352.067 JLINK_WriteReg(R13 (SP), 0x20001000)
T411C 000:352.072 - 0.007ms returns 0
T411C 000:352.078 JLINK_WriteReg(R14, 0x20000001)
T411C 000:352.082 - 0.006ms returns 0
T411C 000:352.088 JLINK_WriteReg(R15 (PC), 0x20000038)
T411C 000:352.094 - 0.008ms returns 0
T411C 000:352.100 JLINK_WriteReg(XPSR, 0x01000000)
T411C 000:352.105 - 0.007ms returns 0
T411C 000:352.110 JLINK_WriteReg(MSP, 0x20001000)
T411C 000:352.114 - 0.006ms returns 0
T411C 000:352.120 JLINK_WriteReg(PSP, 0x20001000)
T411C 000:352.125 - 0.007ms returns 0
T411C 000:352.130 JLINK_WriteReg(CFBP, 0x00000000)
T411C 000:352.138 - 0.011ms returns 0
T411C 000:352.145 JLINK_SetBPEx(Addr = 0x20000000, Type = 0xFFFFFFF2)
T411C 000:352.154   CPU_ReadMem(2 bytes @ 0x20000000)
T411C 000:352.601 - 0.460ms returns 0x00000001
T411C 000:352.610 JLINK_Go()
T411C 000:352.617   CPU_WriteMem(2 bytes @ 0x20000000)
T411C 000:353.166   CPU_ReadMem(4 bytes @ 0xE0001000)
T411C 000:353.662   CPU_WriteMem(4 bytes @ 0xE0002008)
T411C 000:353.671   CPU_WriteMem(4 bytes @ 0xE000200C)
T411C 000:353.678   CPU_WriteMem(4 bytes @ 0xE0002010)
T411C 000:353.684   CPU_WriteMem(4 bytes @ 0xE0002014)
T411C 000:353.691   CPU_WriteMem(4 bytes @ 0xE0002018)
T411C 000:353.697   CPU_WriteMem(4 bytes @ 0xE000201C)
T411C 000:356.173   CPU_WriteMem(4 bytes @ 0xE0001004)
T411C 000:359.981 - 7.390ms
T411C 000:360.032 JLINK_IsHalted()
T411C 000:363.255   CPU_ReadMem(2 bytes @ 0x20000000)
T411C 000:363.876 - 3.850ms returns TRUE
T411C 000:363.888 JLINK_ReadReg(R15 (PC))
T411C 000:363.895 - 0.009ms returns 0x20000000
T411C 000:363.901 JLINK_ClrBPEx(BPHandle = 0x00000001)
T411C 000:363.906 - 0.007ms returns 0x00
T411C 000:363.912 JLINK_ReadReg(R0)
T411C 000:363.917 - 0.007ms returns 0x00000000
T411C 000:364.403 JLINK_HasError()
T411C 000:364.414 JLINK_WriteReg(R0, 0x08000000)
T411C 000:364.421 - 0.009ms returns 0
T411C 000:364.426 JLINK_WriteReg(R1, 0x00B71B00)
T411C 000:364.431 - 0.007ms returns 0
T411C 000:364.437 JLINK_WriteReg(R2, 0x00000001)
T411C 000:364.441 - 0.007ms returns 0
T411C 000:364.447 JLINK_WriteReg(R3, 0x00000000)
T411C 000:364.451 - 0.007ms returns 0
T411C 000:364.457 JLINK_WriteReg(R4, 0x00000000)
T411C 000:364.461 - 0.006ms returns 0
T411C 000:364.467 JLINK_WriteReg(R5, 0x00000000)
T411C 000:364.471 - 0.006ms returns 0
T411C 000:364.477 JLINK_WriteReg(R6, 0x00000000)
T411C 000:364.481 - 0.006ms returns 0
T411C 000:364.487 JLINK_WriteReg(R7, 0x00000000)
T411C 000:364.491 - 0.006ms returns 0
T411C 000:364.497 JLINK_WriteReg(R8, 0x00000000)
T411C 000:364.501 - 0.006ms returns 0
T411C 000:364.507 JLINK_WriteReg(R9, 0x20000160)
T411C 000:364.511 - 0.006ms returns 0
T411C 000:364.517 JLINK_WriteReg(R10, 0x00000000)
T411C 000:364.521 - 0.007ms returns 0
T411C 000:364.527 JLINK_WriteReg(R11, 0x00000000)
T411C 000:364.531 - 0.006ms returns 0
T411C 000:364.537 JLINK_WriteReg(R12, 0x00000000)
T411C 000:364.541 - 0.006ms returns 0
T411C 000:364.546 JLINK_WriteReg(R13 (SP), 0x20001000)
T411C 000:364.551 - 0.007ms returns 0
T411C 000:364.557 JLINK_WriteReg(R14, 0x20000001)
T411C 000:364.561 - 0.006ms returns 0
T411C 000:364.567 JLINK_WriteReg(R15 (PC), 0x2000007C)
T411C 000:364.571 - 0.006ms returns 0
T411C 000:364.577 JLINK_WriteReg(XPSR, 0x01000000)
T411C 000:364.582 - 0.006ms returns 0
T411C 000:364.587 JLINK_WriteReg(MSP, 0x20001000)
T411C 000:364.591 - 0.006ms returns 0
T411C 000:364.597 JLINK_WriteReg(PSP, 0x20001000)
T411C 000:364.602 - 0.006ms returns 0
T411C 000:364.607 JLINK_WriteReg(CFBP, 0x00000000)
T411C 000:364.612 - 0.006ms returns 0
T411C 000:364.617 JLINK_SetBPEx(Addr = 0x20000000, Type = 0xFFFFFFF2)
T411C 000:364.623 - 0.007ms returns 0x00000002
T411C 000:364.628 JLINK_Go()
T411C 000:364.638   CPU_ReadMem(4 bytes @ 0xE0001000)
T411C 000:368.265 - 3.666ms
T411C 000:368.323 JLINK_IsHalted()
T411C 000:368.794 - 0.474ms returns FALSE
T411C 000:368.802 JLINK_HasError()
T411C 000:380.645 JLINK_IsHalted()
T411C 000:381.209 - 0.569ms returns FALSE
T411C 000:381.219 JLINK_HasError()
T411C 000:383.636 JLINK_IsHalted()
T411C 000:384.334 - 0.703ms returns FALSE
T411C 000:384.344 JLINK_HasError()
T411C 000:385.631 JLINK_IsHalted()
T411C 000:386.184 - 0.558ms returns FALSE
T411C 000:386.193 JLINK_HasError()
T411C 000:388.190 JLINK_IsHalted()
T411C 000:388.699 - 0.526ms returns FALSE
T411C 000:388.744 JLINK_HasError()
T411C 000:390.688 JLINK_IsHalted()
T411C 000:394.036   CPU_ReadMem(2 bytes @ 0x20000000)
T411C 000:394.566 - 3.896ms returns TRUE
T411C 000:394.617 JLINK_ReadReg(R15 (PC))
T411C 000:394.624 - 0.009ms returns 0x20000000
T411C 000:394.630 JLINK_ClrBPEx(BPHandle = 0x00000002)
T411C 000:394.683 - 0.058ms returns 0x00
T411C 000:394.692 JLINK_ReadReg(R0)
T411C 000:394.697 - 0.007ms returns 0x00000000
T411C 000:446.773 JLINK_HasError()
T411C 000:446.797 JLINK_WriteReg(R0, 0x00000001)
T411C 000:446.807 - 0.012ms returns 0
T411C 000:446.813 JLINK_WriteReg(R1, 0x00B71B00)
T411C 000:446.818 - 0.007ms returns 0
T411C 000:446.824 JLINK_WriteReg(R2, 0x00000001)
T411C 000:446.829 - 0.007ms returns 0
T411C 000:446.834 JLINK_WriteReg(R3, 0x00000000)
T411C 000:446.839 - 0.006ms returns 0
T411C 000:446.844 JLINK_WriteReg(R4, 0x00000000)
T411C 000:446.849 - 0.007ms returns 0
T411C 000:446.854 JLINK_WriteReg(R5, 0x00000000)
T411C 000:446.859 - 0.006ms returns 0
T411C 000:446.864 JLINK_WriteReg(R6, 0x00000000)
T411C 000:446.869 - 0.006ms returns 0
T411C 000:446.874 JLINK_WriteReg(R7, 0x00000000)
T411C 000:446.879 - 0.006ms returns 0
T411C 000:446.884 JLINK_WriteReg(R8, 0x00000000)
T411C 000:446.889 - 0.006ms returns 0
T411C 000:446.894 JLINK_WriteReg(R9, 0x20000160)
T411C 000:446.899 - 0.006ms returns 0
T411C 000:446.904 JLINK_WriteReg(R10, 0x00000000)
T411C 000:446.909 - 0.006ms returns 0
T411C 000:446.914 JLINK_WriteReg(R11, 0x00000000)
T411C 000:446.919 - 0.006ms returns 0
T411C 000:446.924 JLINK_WriteReg(R12, 0x00000000)
T411C 000:446.929 - 0.006ms returns 0
T411C 000:446.935 JLINK_WriteReg(R13 (SP), 0x20001000)
T411C 000:446.940 - 0.007ms returns 0
T411C 000:446.945 JLINK_WriteReg(R14, 0x20000001)
T411C 000:446.950 - 0.006ms returns 0
T411C 000:446.955 JLINK_WriteReg(R15 (PC), 0x2000006A)
T411C 000:446.960 - 0.007ms returns 0
T411C 000:446.966 JLINK_WriteReg(XPSR, 0x01000000)
T411C 000:446.970 - 0.006ms returns 0
T411C 000:446.976 JLINK_WriteReg(MSP, 0x20001000)
T411C 000:446.980 - 0.007ms returns 0
T411C 000:446.986 JLINK_WriteReg(PSP, 0x20001000)
T411C 000:446.991 - 0.007ms returns 0
T411C 000:446.996 JLINK_WriteReg(CFBP, 0x00000000)
T411C 000:447.001 - 0.006ms returns 0
T411C 000:447.006 JLINK_SetBPEx(Addr = 0x20000000, Type = 0xFFFFFFF2)
T411C 000:447.012 - 0.008ms returns 0x00000003
T411C 000:447.018 JLINK_Go()
T411C 000:447.031   CPU_ReadMem(4 bytes @ 0xE0001000)
T411C 000:450.798 - 3.813ms
T411C 000:450.854 JLINK_IsHalted()
T411C 000:454.181   CPU_ReadMem(2 bytes @ 0x20000000)
T411C 000:454.701 - 3.855ms returns TRUE
T411C 000:454.716 JLINK_ReadReg(R15 (PC))
T411C 000:454.723 - 0.008ms returns 0x20000000
T411C 000:454.729 JLINK_ClrBPEx(BPHandle = 0x00000003)
T411C 000:454.734 - 0.007ms returns 0x00
T411C 000:454.739 JLINK_ReadReg(R0)
T411C 000:454.744 - 0.007ms returns 0x00000000
T411C 000:458.541 JLINK_WriteMem(0x20000000, 0x164 Bytes, ...)
T411C 000:458.550   Data:  00 BE 0A E0 0D 78 2D 06 68 40 08 24 40 00 00 D3 ...
T411C 000:458.565   CPU_WriteMem(356 bytes @ 0x20000000)
T411C 000:463.269 - 4.754ms returns 0x164
T411C 000:463.314 JLINK_HasError()
T411C 000:463.321 JLINK_WriteReg(R0, 0x08000000)
T411C 000:463.328 - 0.008ms returns 0
T411C 000:463.334 JLINK_WriteReg(R1, 0x00B71B00)
T411C 000:463.338 - 0.007ms returns 0
T411C 000:463.344 JLINK_WriteReg(R2, 0x00000002)
T411C 000:463.349 - 0.007ms returns 0
T411C 000:463.354 JLINK_WriteReg(R3, 0x00000000)
T411C 000:463.359 - 0.007ms returns 0
T411C 000:463.364 JLINK_WriteReg(R4, 0x00000000)
T411C 000:463.369 - 0.006ms returns 0
T411C 000:463.374 JLINK_WriteReg(R5, 0x00000000)
T411C 000:463.379 - 0.006ms returns 0
T411C 000:463.384 JLINK_WriteReg(R6, 0x00000000)
T411C 000:463.389 - 0.007ms returns 0
T411C 000:463.394 JLINK_WriteReg(R7, 0x00000000)
T411C 000:463.399 - 0.006ms returns 0
T411C 000:463.404 JLINK_WriteReg(R8, 0x00000000)
T411C 000:463.409 - 0.006ms returns 0
T411C 000:463.414 JLINK_WriteReg(R9, 0x20000160)
T411C 000:463.419 - 0.006ms returns 0
T411C 000:463.424 JLINK_WriteReg(R10, 0x00000000)
T411C 000:463.429 - 0.006ms returns 0
T411C 000:463.434 JLINK_WriteReg(R11, 0x00000000)
T411C 000:463.439 - 0.006ms returns 0
T411C 000:463.444 JLINK_WriteReg(R12, 0x00000000)
T411C 000:463.449 - 0.006ms returns 0
T411C 000:463.455 JLINK_WriteReg(R13 (SP), 0x20001000)
T411C 000:463.466 - 0.013ms returns 0
T411C 000:463.471 JLINK_WriteReg(R14, 0x20000001)
T411C 000:463.476 - 0.007ms returns 0
T411C 000:463.481 JLINK_WriteReg(R15 (PC), 0x20000038)
T411C 000:463.486 - 0.007ms returns 0
T411C 000:463.491 JLINK_WriteReg(XPSR, 0x01000000)
T411C 000:463.496 - 0.007ms returns 0
T411C 000:463.502 JLINK_WriteReg(MSP, 0x20001000)
T411C 000:463.506 - 0.006ms returns 0
T411C 000:463.512 JLINK_WriteReg(PSP, 0x20001000)
T411C 000:463.516 - 0.006ms returns 0
T411C 000:463.522 JLINK_WriteReg(CFBP, 0x00000000)
T411C 000:463.527 - 0.006ms returns 0
T411C 000:463.532 JLINK_SetBPEx(Addr = 0x20000000, Type = 0xFFFFFFF2)
T411C 000:463.540   CPU_ReadMem(2 bytes @ 0x20000000)
T411C 000:464.041 - 0.513ms returns 0x00000004
T411C 000:464.049 JLINK_Go()
T411C 000:464.056   CPU_WriteMem(2 bytes @ 0x20000000)
T411C 000:464.631   CPU_ReadMem(4 bytes @ 0xE0001000)
T411C 000:468.318 - 4.299ms
T411C 000:468.375 JLINK_IsHalted()
T411C 000:471.637   CPU_ReadMem(2 bytes @ 0x20000000)
T411C 000:472.160 - 3.802ms returns TRUE
T411C 000:472.213 JLINK_ReadReg(R15 (PC))
T411C 000:472.219 - 0.008ms returns 0x20000000
T411C 000:472.225 JLINK_ClrBPEx(BPHandle = 0x00000004)
T411C 000:472.230 - 0.007ms returns 0x00
T411C 000:472.236 JLINK_ReadReg(R0)
T411C 000:472.240 - 0.007ms returns 0x00000000
T411C 000:472.507 JLINK_WriteMem(0x20000164, 0x29C Bytes, ...)
T411C 000:472.516   Data:  80 0C 00 20 3D 02 00 08 11 31 00 08 7D 28 00 08 ...
T411C 000:472.530   CPU_WriteMem(668 bytes @ 0x20000164)
T411C 000:480.672 - 8.196ms returns 0x29C
T411C 000:480.710 JLINK_WriteMem(0x20000400, 0x164 Bytes, ...)
T411C 000:480.715   Data:  10 68 A0 42 10 D3 04 F1 08 01 88 42 3C BF 50 68 ...
T411C 000:480.727   CPU_WriteMem(356 bytes @ 0x20000400)
T411C 000:485.550 - 4.852ms returns 0x164
T411C 000:485.573 JLINK_HasError()
T411C 000:485.624 JLINK_WriteReg(R0, 0x08000000)
T411C 000:485.634 - 0.012ms returns 0
T411C 000:485.641 JLINK_WriteReg(R1, 0x00000400)
T411C 000:485.646 - 0.008ms returns 0
T411C 000:485.652 JLINK_WriteReg(R2, 0x20000164)
T411C 000:485.657 - 0.007ms returns 0
T411C 000:485.662 JLINK_WriteReg(R3, 0x00000000)
T411C 000:485.667 - 0.006ms returns 0
T411C 000:485.673 JLINK_WriteReg(R4, 0x00000000)
T411C 000:485.677 - 0.006ms returns 0
T411C 000:485.683 JLINK_WriteReg(R5, 0x00000000)
T411C 000:485.687 - 0.006ms returns 0
T411C 000:485.693 JLINK_WriteReg(R6, 0x00000000)
T411C 000:485.697 - 0.007ms returns 0
T411C 000:485.703 JLINK_WriteReg(R7, 0x00000000)
T411C 000:485.707 - 0.006ms returns 0
T411C 000:485.713 JLINK_WriteReg(R8, 0x00000000)
T411C 000:485.718 - 0.007ms returns 0
T411C 000:485.723 JLINK_WriteReg(R9, 0x20000160)
T411C 000:485.728 - 0.006ms returns 0
T411C 000:485.733 JLINK_WriteReg(R10, 0x00000000)
T411C 000:485.738 - 0.007ms returns 0
T411C 000:485.743 JLINK_WriteReg(R11, 0x00000000)
T411C 000:485.748 - 0.006ms returns 0
T411C 000:485.753 JLINK_WriteReg(R12, 0x00000000)
T411C 000:485.758 - 0.006ms returns 0
T411C 000:485.763 JLINK_WriteReg(R13 (SP), 0x20001000)
T411C 000:485.769 - 0.007ms returns 0
T411C 000:485.774 JLINK_WriteReg(R14, 0x20000001)
T411C 000:485.779 - 0.007ms returns 0
T411C 000:485.784 JLINK_WriteReg(R15 (PC), 0x200000F4)
T411C 000:485.789 - 0.007ms returns 0
T411C 000:485.794 JLINK_WriteReg(XPSR, 0x01000000)
T411C 000:485.799 - 0.007ms returns 0
T411C 000:485.804 JLINK_WriteReg(MSP, 0x20001000)
T411C 000:485.809 - 0.006ms returns 0
T411C 000:485.814 JLINK_WriteReg(PSP, 0x20001000)
T411C 000:485.819 - 0.007ms returns 0
T411C 000:485.825 JLINK_WriteReg(CFBP, 0x00000000)
T411C 000:485.829 - 0.006ms returns 0
T411C 000:485.835 JLINK_SetBPEx(Addr = 0x20000000, Type = 0xFFFFFFF2)
T411C 000:485.841 - 0.008ms returns 0x00000005
T411C 000:485.847 JLINK_Go()
T411C 000:485.858   CPU_ReadMem(4 bytes @ 0xE0001000)
T411C 000:489.560 - 3.734ms
T411C 000:489.609 JLINK_IsHalted()
T411C 000:490.150 - 0.544ms returns FALSE
T411C 000:490.158 JLINK_HasError()
T411C 000:496.777 JLINK_IsHalted()
T411C 000:497.349 - 0.580ms returns FALSE
T411C 000:497.363 JLINK_HasError()
T411C 000:499.326 JLINK_IsHalted()
T411C 000:499.881 - 0.562ms returns FALSE
T411C 000:499.893 JLINK_HasError()
T411C 000:502.736 JLINK_IsHalted()
T411C 000:503.277 - 0.546ms returns FALSE
T411C 000:503.286 JLINK_HasError()
T411C 000:504.725 JLINK_IsHalted()
T411C 000:505.251 - 0.530ms returns FALSE
T411C 000:505.259 JLINK_HasError()
T411C 000:506.728 JLINK_IsHalted()
T411C 000:507.252 - 0.542ms returns FALSE
T411C 000:507.306 JLINK_HasError()
T411C 000:509.240 JLINK_IsHalted()
T411C 000:509.716 - 0.480ms returns FALSE
T411C 000:509.724 JLINK_HasError()
T411C 000:512.492 JLINK_IsHalted()
T411C 000:513.042 - 0.554ms returns FALSE
T411C 000:513.051 JLINK_HasError()
T411C 000:514.497 JLINK_IsHalted()
T411C 000:514.990 - 0.497ms returns FALSE
T411C 000:514.998 JLINK_HasError()
T411C 000:516.750 JLINK_IsHalted()
T411C 000:517.266 - 0.536ms returns FALSE
T411C 000:517.314 JLINK_HasError()
T411C 000:519.556 JLINK_IsHalted()
T411C 000:520.026 - 0.475ms returns FALSE
T411C 000:520.036 JLINK_HasError()
T411C 000:522.040 JLINK_IsHalted()
T411C 000:525.358   CPU_ReadMem(2 bytes @ 0x20000000)
T411C 000:525.806 - 3.769ms returns TRUE
T411C 000:525.814 JLINK_ReadReg(R15 (PC))
T411C 000:525.821 - 0.009ms returns 0x20000000
T411C 000:525.827 JLINK_ClrBPEx(BPHandle = 0x00000005)
T411C 000:525.832 - 0.007ms returns 0x00
T411C 000:525.838 JLINK_ReadReg(R0)
T411C 000:525.843 - 0.007ms returns 0x00000000
T411C 000:526.253 JLINK_WriteMem(0x20000164, 0x29C Bytes, ...)
T411C 000:526.261   Data:  14 F8 01 0B 90 47 B4 42 F8 D3 28 46 00 F0 8A FA ...
T411C 000:526.274   CPU_WriteMem(668 bytes @ 0x20000164)
T411C 000:534.546 - 8.299ms returns 0x29C
T411C 000:534.558 JLINK_WriteMem(0x20000400, 0x164 Bytes, ...)
T411C 000:534.563   Data:  08 C2 08 C9 1D 1B 9D 43 15 EA C4 1F F8 D0 13 F0 ...
T411C 000:534.579   CPU_WriteMem(356 bytes @ 0x20000400)
T411C 000:539.415 - 4.864ms returns 0x164
T411C 000:539.429 JLINK_HasError()
T411C 000:539.436 JLINK_WriteReg(R0, 0x08000400)
T411C 000:539.443 - 0.009ms returns 0
T411C 000:539.449 JLINK_WriteReg(R1, 0x00000400)
T411C 000:539.454 - 0.007ms returns 0
T411C 000:539.459 JLINK_WriteReg(R2, 0x20000164)
T411C 000:539.464 - 0.007ms returns 0
T411C 000:539.470 JLINK_WriteReg(R3, 0x00000000)
T411C 000:539.475 - 0.006ms returns 0
T411C 000:539.481 JLINK_WriteReg(R4, 0x00000000)
T411C 000:539.486 - 0.007ms returns 0
T411C 000:539.492 JLINK_WriteReg(R5, 0x00000000)
T411C 000:539.496 - 0.006ms returns 0
T411C 000:539.502 JLINK_WriteReg(R6, 0x00000000)
T411C 000:539.507 - 0.007ms returns 0
T411C 000:539.512 JLINK_WriteReg(R7, 0x00000000)
T411C 000:539.517 - 0.006ms returns 0
T411C 000:539.523 JLINK_WriteReg(R8, 0x00000000)
T411C 000:539.527 - 0.006ms returns 0
T411C 000:539.533 JLINK_WriteReg(R9, 0x20000160)
T411C 000:539.537 - 0.006ms returns 0
T411C 000:539.543 JLINK_WriteReg(R10, 0x00000000)
T411C 000:539.547 - 0.007ms returns 0
T411C 000:539.554 JLINK_WriteReg(R11, 0x00000000)
T411C 000:539.558 - 0.007ms returns 0
T411C 000:539.564 JLINK_WriteReg(R12, 0x00000000)
T411C 000:539.568 - 0.006ms returns 0
T411C 000:539.575 JLINK_WriteReg(R13 (SP), 0x20001000)
T411C 000:539.580 - 0.007ms returns 0
T411C 000:539.586 JLINK_WriteReg(R14, 0x20000001)
T411C 000:539.591 - 0.007ms returns 0
T411C 000:539.597 JLINK_WriteReg(R15 (PC), 0x200000F4)
T411C 000:539.602 - 0.007ms returns 0
T411C 000:539.609 JLINK_WriteReg(XPSR, 0x01000000)
T411C 000:539.613 - 0.007ms returns 0
T411C 000:539.620 JLINK_WriteReg(MSP, 0x20001000)
T411C 000:539.624 - 0.006ms returns 0
T411C 000:539.631 JLINK_WriteReg(PSP, 0x20001000)
T411C 000:539.636 - 0.007ms returns 0
T411C 000:539.642 JLINK_WriteReg(CFBP, 0x00000000)
T411C 000:539.647 - 0.007ms returns 0
T411C 000:539.653 JLINK_SetBPEx(Addr = 0x20000000, Type = 0xFFFFFFF2)
T411C 000:539.659 - 0.008ms returns 0x00000006
T411C 000:539.665 JLINK_Go()
T411C 000:539.675   CPU_ReadMem(4 bytes @ 0xE0001000)
T411C 000:543.575 - 3.915ms
T411C 000:543.588 JLINK_IsHalted()
T411C 000:544.125 - 0.546ms returns FALSE
T411C 000:544.140 JLINK_HasError()
T411C 000:546.951 JLINK_IsHalted()
T411C 000:547.502 - 0.573ms returns FALSE
T411C 000:547.547 JLINK_HasError()
T411C 000:548.912 JLINK_IsHalted()
T411C 000:549.483 - 0.576ms returns FALSE
T411C 000:549.493 JLINK_HasError()
T411C 000:551.734 JLINK_IsHalted()
T411C 000:552.296 - 0.582ms returns FALSE
T411C 000:552.340 JLINK_HasError()
T411C 000:553.978 JLINK_IsHalted()
T411C 000:554.567 - 0.593ms returns FALSE
T411C 000:554.575 JLINK_HasError()
T411C 000:555.933 JLINK_IsHalted()
T411C 000:556.457 - 0.528ms returns FALSE
T411C 000:556.465 JLINK_HasError()
T411C 000:558.955 JLINK_IsHalted()
T411C 000:559.518 - 0.567ms returns FALSE
T411C 000:559.527 JLINK_HasError()
T411C 000:562.493 JLINK_IsHalted()
T411C 000:563.026 - 0.537ms returns FALSE
T411C 000:563.034 JLINK_HasError()
T411C 000:564.489 JLINK_IsHalted()
T411C 000:565.057 - 0.572ms returns FALSE
T411C 000:565.065 JLINK_HasError()
T411C 000:567.601 JLINK_IsHalted()
T411C 000:568.089 - 0.493ms returns FALSE
T411C 000:568.098 JLINK_HasError()
T411C 000:569.507 JLINK_IsHalted()
T411C 000:569.907 - 0.404ms returns FALSE
T411C 000:569.919 JLINK_HasError()
T411C 000:571.557 JLINK_IsHalted()
T411C 000:572.102 - 0.566ms returns FALSE
T411C 000:572.128 JLINK_HasError()
T411C 000:573.560 JLINK_IsHalted()
T411C 000:574.042 - 0.485ms returns FALSE
T411C 000:574.049 JLINK_HasError()
T411C 000:575.520 JLINK_IsHalted()
T411C 000:578.777   CPU_ReadMem(2 bytes @ 0x20000000)
T411C 000:579.282 - 3.767ms returns TRUE
T411C 000:579.291 JLINK_ReadReg(R15 (PC))
T411C 000:579.298 - 0.009ms returns 0x20000000
T411C 000:579.303 JLINK_ClrBPEx(BPHandle = 0x00000006)
T411C 000:579.308 - 0.007ms returns 0x00
T411C 000:579.314 JLINK_ReadReg(R0)
T411C 000:579.319 - 0.007ms returns 0x00000000
T411C 000:579.743 JLINK_WriteMem(0x20000164, 0x29C Bytes, ...)
T411C 000:579.752   Data:  96 46 20 39 22 BF A0 E8 0C 50 A0 E8 0C 50 B1 F1 ...
T411C 000:579.765   CPU_WriteMem(668 bytes @ 0x20000164)
T411C 000:587.985 - 8.249ms returns 0x29C
T411C 000:587.999 JLINK_WriteMem(0x20000400, 0x164 Bytes, ...)
T411C 000:588.005   Data:  91 FC 01 20 10 BD 12 78 00 F1 24 01 0A 70 00 22 ...
T411C 000:588.018   CPU_WriteMem(356 bytes @ 0x20000400)
T411C 000:592.791 - 4.797ms returns 0x164
T411C 000:592.803 JLINK_HasError()
T411C 000:592.810 JLINK_WriteReg(R0, 0x08000800)
T411C 000:592.819 - 0.010ms returns 0
T411C 000:592.824 JLINK_WriteReg(R1, 0x00000400)
T411C 000:592.829 - 0.007ms returns 0
T411C 000:592.835 JLINK_WriteReg(R2, 0x20000164)
T411C 000:592.840 - 0.006ms returns 0
T411C 000:592.845 JLINK_WriteReg(R3, 0x00000000)
T411C 000:592.850 - 0.006ms returns 0
T411C 000:592.855 JLINK_WriteReg(R4, 0x00000000)
T411C 000:592.860 - 0.006ms returns 0
T411C 000:592.865 JLINK_WriteReg(R5, 0x00000000)
T411C 000:592.870 - 0.006ms returns 0
T411C 000:592.875 JLINK_WriteReg(R6, 0x00000000)
T411C 000:592.880 - 0.006ms returns 0
T411C 000:592.885 JLINK_WriteReg(R7, 0x00000000)
T411C 000:592.890 - 0.006ms returns 0
T411C 000:592.895 JLINK_WriteReg(R8, 0x00000000)
T411C 000:592.900 - 0.007ms returns 0
T411C 000:592.905 JLINK_WriteReg(R9, 0x20000160)
T411C 000:592.910 - 0.007ms returns 0
T411C 000:592.916 JLINK_WriteReg(R10, 0x00000000)
T411C 000:592.920 - 0.006ms returns 0
T411C 000:592.926 JLINK_WriteReg(R11, 0x00000000)
T411C 000:592.930 - 0.006ms returns 0
T411C 000:592.936 JLINK_WriteReg(R12, 0x00000000)
T411C 000:592.940 - 0.006ms returns 0
T411C 000:592.946 JLINK_WriteReg(R13 (SP), 0x20001000)
T411C 000:592.951 - 0.007ms returns 0
T411C 000:592.957 JLINK_WriteReg(R14, 0x20000001)
T411C 000:592.961 - 0.006ms returns 0
T411C 000:592.967 JLINK_WriteReg(R15 (PC), 0x200000F4)
T411C 000:592.972 - 0.007ms returns 0
T411C 000:592.977 JLINK_WriteReg(XPSR, 0x01000000)
T411C 000:592.982 - 0.007ms returns 0
T411C 000:592.987 JLINK_WriteReg(MSP, 0x20001000)
T411C 000:592.992 - 0.006ms returns 0
T411C 000:592.997 JLINK_WriteReg(PSP, 0x20001000)
T411C 000:593.002 - 0.006ms returns 0
T411C 000:593.043 JLINK_WriteReg(CFBP, 0x00000000)
T411C 000:593.050 - 0.010ms returns 0
T411C 000:593.056 JLINK_SetBPEx(Addr = 0x20000000, Type = 0xFFFFFFF2)
T411C 000:593.062 - 0.008ms returns 0x00000007
T411C 000:593.068 JLINK_Go()
T411C 000:593.079   CPU_ReadMem(4 bytes @ 0xE0001000)
T411C 000:596.902 - 3.841ms
T411C 000:596.916 JLINK_IsHalted()
T411C 000:597.576 - 0.666ms returns FALSE
T411C 000:597.589 JLINK_HasError()
T411C 000:598.683 JLINK_IsHalted()
T411C 000:599.237 - 0.562ms returns FALSE
T411C 000:599.251 JLINK_HasError()
T411C 000:600.794 JLINK_IsHalted()
T411C 000:601.329 - 0.541ms returns FALSE
T411C 000:601.340 JLINK_HasError()
T411C 000:603.474 JLINK_IsHalted()
T411C 000:604.000 - 0.532ms returns FALSE
T411C 000:604.012 JLINK_HasError()
T411C 000:605.319 JLINK_IsHalted()
T411C 000:605.847 - 0.532ms returns FALSE
T411C 000:605.856 JLINK_HasError()
T411C 000:608.338 JLINK_IsHalted()
T411C 000:608.895 - 0.561ms returns FALSE
T411C 000:608.903 JLINK_HasError()
T411C 000:610.706 JLINK_IsHalted()
T411C 000:611.296 - 0.594ms returns FALSE
T411C 000:611.304 JLINK_HasError()
T411C 000:613.277 JLINK_IsHalted()
T411C 000:613.841 - 0.582ms returns FALSE
T411C 000:613.893 JLINK_HasError()
T411C 000:615.831 JLINK_IsHalted()
T411C 000:616.384 - 0.557ms returns FALSE
T411C 000:616.392 JLINK_HasError()
T411C 000:617.818 JLINK_IsHalted()
T411C 000:618.335 - 0.520ms returns FALSE
T411C 000:618.342 JLINK_HasError()
T411C 000:619.814 JLINK_IsHalted()
T411C 000:620.437 - 0.627ms returns FALSE
T411C 000:620.445 JLINK_HasError()
T411C 000:622.408 JLINK_IsHalted()
T411C 000:623.086 - 0.683ms returns FALSE
T411C 000:623.095 JLINK_HasError()
T411C 000:624.396 JLINK_IsHalted()
T411C 000:624.946 - 0.553ms returns FALSE
T411C 000:624.953 JLINK_HasError()
T411C 000:626.393 JLINK_IsHalted()
T411C 000:626.946 - 0.557ms returns FALSE
T411C 000:626.954 JLINK_HasError()
T411C 000:628.389 JLINK_IsHalted()
T411C 000:631.765   CPU_ReadMem(2 bytes @ 0x20000000)
T411C 000:632.315 - 3.929ms returns TRUE
T411C 000:632.323 JLINK_ReadReg(R15 (PC))
T411C 000:632.330 - 0.009ms returns 0x20000000
T411C 000:632.336 JLINK_ClrBPEx(BPHandle = 0x00000007)
T411C 000:632.341 - 0.007ms returns 0x00
T411C 000:632.347 JLINK_ReadReg(R0)
T411C 000:632.352 - 0.007ms returns 0x00000000
T411C 000:632.748 JLINK_WriteMem(0x20000164, 0x29C Bytes, ...)
T411C 000:632.757   Data:  07 05 D2 08 30 35 42 EA 43 72 DB 08 65 54 49 1C ...
T411C 000:632.769   CPU_WriteMem(668 bytes @ 0x20000164)
T411C 000:641.026 - 8.313ms returns 0x29C
T411C 000:641.067 JLINK_WriteMem(0x20000400, 0x164 Bytes, ...)
T411C 000:641.072   Data:  44 EB 01 04 6D 19 44 EB 04 04 52 1B A3 41 4F F0 ...
T411C 000:641.081   CPU_WriteMem(356 bytes @ 0x20000400)
T411C 000:646.015 - 4.965ms returns 0x164
T411C 000:646.041 JLINK_HasError()
T411C 000:646.048 JLINK_WriteReg(R0, 0x08000C00)
T411C 000:646.059 - 0.012ms returns 0
T411C 000:646.065 JLINK_WriteReg(R1, 0x00000400)
T411C 000:646.070 - 0.007ms returns 0
T411C 000:646.075 JLINK_WriteReg(R2, 0x20000164)
T411C 000:646.080 - 0.007ms returns 0
T411C 000:646.086 JLINK_WriteReg(R3, 0x00000000)
T411C 000:646.091 - 0.007ms returns 0
T411C 000:646.096 JLINK_WriteReg(R4, 0x00000000)
T411C 000:646.101 - 0.006ms returns 0
T411C 000:646.106 JLINK_WriteReg(R5, 0x00000000)
T411C 000:646.111 - 0.006ms returns 0
T411C 000:646.116 JLINK_WriteReg(R6, 0x00000000)
T411C 000:646.121 - 0.006ms returns 0
T411C 000:646.126 JLINK_WriteReg(R7, 0x00000000)
T411C 000:646.131 - 0.006ms returns 0
T411C 000:646.136 JLINK_WriteReg(R8, 0x00000000)
T411C 000:646.141 - 0.006ms returns 0
T411C 000:646.146 JLINK_WriteReg(R9, 0x20000160)
T411C 000:646.159 - 0.015ms returns 0
T411C 000:646.165 JLINK_WriteReg(R10, 0x00000000)
T411C 000:646.169 - 0.007ms returns 0
T411C 000:646.175 JLINK_WriteReg(R11, 0x00000000)
T411C 000:646.180 - 0.006ms returns 0
T411C 000:646.185 JLINK_WriteReg(R12, 0x00000000)
T411C 000:646.190 - 0.006ms returns 0
T411C 000:646.195 JLINK_WriteReg(R13 (SP), 0x20001000)
T411C 000:646.250 - 0.061ms returns 0
T411C 000:646.260 JLINK_WriteReg(R14, 0x20000001)
T411C 000:646.265 - 0.007ms returns 0
T411C 000:646.270 JLINK_WriteReg(R15 (PC), 0x200000F4)
T411C 000:646.275 - 0.007ms returns 0
T411C 000:646.281 JLINK_WriteReg(XPSR, 0x01000000)
T411C 000:646.285 - 0.006ms returns 0
T411C 000:646.291 JLINK_WriteReg(MSP, 0x20001000)
T411C 000:646.295 - 0.006ms returns 0
T411C 000:646.301 JLINK_WriteReg(PSP, 0x20001000)
T411C 000:646.306 - 0.006ms returns 0
T411C 000:646.311 JLINK_WriteReg(CFBP, 0x00000000)
T411C 000:646.316 - 0.007ms returns 0
T411C 000:646.321 JLINK_SetBPEx(Addr = 0x20000000, Type = 0xFFFFFFF2)
T411C 000:646.328 - 0.008ms returns 0x00000008
T411C 000:646.333 JLINK_Go()
T411C 000:646.346   CPU_ReadMem(4 bytes @ 0xE0001000)
T411C 000:650.379 - 4.096ms
T411C 000:650.439 JLINK_IsHalted()
T411C 000:650.977 - 0.544ms returns FALSE
T411C 000:650.989 JLINK_HasError()
T411C 000:654.522 JLINK_IsHalted()
T411C 000:655.071 - 0.553ms returns FALSE
T411C 000:655.080 JLINK_HasError()
T411C 000:657.046 JLINK_IsHalted()
T411C 000:657.644 - 0.602ms returns FALSE
T411C 000:657.652 JLINK_HasError()
T411C 000:659.039 JLINK_IsHalted()
T411C 000:659.600 - 0.578ms returns FALSE
T411C 000:659.641 JLINK_HasError()
T411C 000:661.033 JLINK_IsHalted()
T411C 000:661.555 - 0.544ms returns FALSE
T411C 000:661.581 JLINK_HasError()
T411C 000:663.035 JLINK_IsHalted()
T411C 000:663.530 - 0.499ms returns FALSE
T411C 000:663.538 JLINK_HasError()
T411C 000:665.520 JLINK_IsHalted()
T411C 000:666.104 - 0.591ms returns FALSE
T411C 000:666.116 JLINK_HasError()
T411C 000:669.103 JLINK_IsHalted()
T411C 000:669.651 - 0.552ms returns FALSE
T411C 000:669.660 JLINK_HasError()
T411C 000:671.094 JLINK_IsHalted()
T411C 000:671.652 - 0.587ms returns FALSE
T411C 000:671.685 JLINK_HasError()
T411C 000:673.086 JLINK_IsHalted()
T411C 000:673.741 - 0.661ms returns FALSE
T411C 000:673.752 JLINK_HasError()
T411C 000:675.179 JLINK_IsHalted()
T411C 000:675.788 - 0.615ms returns FALSE
T411C 000:675.799 JLINK_HasError()
T411C 000:677.172 JLINK_IsHalted()
T411C 000:677.745 - 0.580ms returns FALSE
T411C 000:677.757 JLINK_HasError()
T411C 000:679.208 JLINK_IsHalted()
T411C 000:679.795 - 0.593ms returns FALSE
T411C 000:679.806 JLINK_HasError()
T411C 000:681.210 JLINK_IsHalted()
T411C 000:684.671   CPU_ReadMem(2 bytes @ 0x20000000)
T411C 000:685.204 - 3.999ms returns TRUE
T411C 000:685.216 JLINK_ReadReg(R15 (PC))
T411C 000:685.223 - 0.010ms returns 0x20000000
T411C 000:685.229 JLINK_ClrBPEx(BPHandle = 0x00000008)
T411C 000:685.234 - 0.007ms returns 0x00
T411C 000:685.240 JLINK_ReadReg(R0)
T411C 000:685.245 - 0.007ms returns 0x00000000
T411C 000:685.648 JLINK_WriteMem(0x20000164, 0x29C Bytes, ...)
T411C 000:685.656   Data:  00 22 7F 1C 04 E0 20 78 30 28 01 D1 00 22 7F 1E ...
T411C 000:685.669   CPU_WriteMem(668 bytes @ 0x20000164)
T411C 000:694.003 - 8.362ms returns 0x29C
T411C 000:694.015 JLINK_WriteMem(0x20000400, 0x164 Bytes, ...)
T411C 000:694.020   Data:  C0 68 01 68 40 5C D4 E9 01 21 90 47 20 6A 40 1C ...
T411C 000:694.031   CPU_WriteMem(356 bytes @ 0x20000400)
T411C 000:698.923 - 4.919ms returns 0x164
T411C 000:698.947 JLINK_HasError()
T411C 000:698.954 JLINK_WriteReg(R0, 0x08001000)
T411C 000:698.964 - 0.012ms returns 0
T411C 000:698.970 JLINK_WriteReg(R1, 0x00000400)
T411C 000:698.975 - 0.007ms returns 0
T411C 000:698.980 JLINK_WriteReg(R2, 0x20000164)
T411C 000:698.985 - 0.007ms returns 0
T411C 000:698.990 JLINK_WriteReg(R3, 0x00000000)
T411C 000:698.995 - 0.007ms returns 0
T411C 000:699.001 JLINK_WriteReg(R4, 0x00000000)
T411C 000:699.005 - 0.006ms returns 0
T411C 000:699.011 JLINK_WriteReg(R5, 0x00000000)
T411C 000:699.015 - 0.006ms returns 0
T411C 000:699.021 JLINK_WriteReg(R6, 0x00000000)
T411C 000:699.025 - 0.006ms returns 0
T411C 000:699.031 JLINK_WriteReg(R7, 0x00000000)
T411C 000:699.035 - 0.006ms returns 0
T411C 000:699.041 JLINK_WriteReg(R8, 0x00000000)
T411C 000:699.046 - 0.007ms returns 0
T411C 000:699.051 JLINK_WriteReg(R9, 0x20000160)
T411C 000:699.059 - 0.012ms returns 0
T411C 000:699.067 JLINK_WriteReg(R10, 0x00000000)
T411C 000:699.072 - 0.007ms returns 0
T411C 000:699.077 JLINK_WriteReg(R11, 0x00000000)
T411C 000:699.082 - 0.006ms returns 0
T411C 000:699.087 JLINK_WriteReg(R12, 0x00000000)
T411C 000:699.092 - 0.006ms returns 0
T411C 000:699.097 JLINK_WriteReg(R13 (SP), 0x20001000)
T411C 000:699.103 - 0.007ms returns 0
T411C 000:699.108 JLINK_WriteReg(R14, 0x20000001)
T411C 000:699.113 - 0.006ms returns 0
T411C 000:699.118 JLINK_WriteReg(R15 (PC), 0x200000F4)
T411C 000:699.123 - 0.007ms returns 0
T411C 000:699.128 JLINK_WriteReg(XPSR, 0x01000000)
T411C 000:699.134 - 0.008ms returns 0
T411C 000:699.140 JLINK_WriteReg(MSP, 0x20001000)
T411C 000:699.144 - 0.007ms returns 0
T411C 000:699.150 JLINK_WriteReg(PSP, 0x20001000)
T411C 000:699.154 - 0.007ms returns 0
T411C 000:699.160 JLINK_WriteReg(CFBP, 0x00000000)
T411C 000:699.165 - 0.007ms returns 0
T411C 000:699.170 JLINK_SetBPEx(Addr = 0x20000000, Type = 0xFFFFFFF2)
T411C 000:699.176 - 0.008ms returns 0x00000009
T411C 000:699.182 JLINK_Go()
T411C 000:699.194   CPU_ReadMem(4 bytes @ 0xE0001000)
T411C 000:703.216 - 4.040ms
T411C 000:703.230 JLINK_IsHalted()
T411C 000:703.658 - 0.431ms returns FALSE
T411C 000:703.668 JLINK_HasError()
T411C 000:705.031 JLINK_IsHalted()
T411C 000:705.524 - 0.526ms returns FALSE
T411C 000:705.562 JLINK_HasError()
T411C 000:707.509 JLINK_IsHalted()
T411C 000:707.992 - 0.503ms returns FALSE
T411C 000:708.017 JLINK_HasError()
T411C 000:709.973 JLINK_IsHalted()
T411C 000:710.519 - 0.550ms returns FALSE
T411C 000:710.527 JLINK_HasError()
T411C 000:711.974 JLINK_IsHalted()
T411C 000:712.529 - 0.558ms returns FALSE
T411C 000:712.537 JLINK_HasError()
T411C 000:715.992 JLINK_IsHalted()
T411C 000:716.515 - 0.553ms returns FALSE
T411C 000:716.550 JLINK_HasError()
T411C 000:718.500 JLINK_IsHalted()
T411C 000:719.052 - 0.555ms returns FALSE
T411C 000:719.060 JLINK_HasError()
T411C 000:720.965 JLINK_IsHalted()
T411C 000:721.413 - 0.466ms returns FALSE
T411C 000:721.453 JLINK_HasError()
T411C 000:723.397 JLINK_IsHalted()
T411C 000:723.903 - 0.509ms returns FALSE
T411C 000:723.910 JLINK_HasError()
T411C 000:725.968 JLINK_IsHalted()
T411C 000:726.575 - 0.613ms returns FALSE
T411C 000:726.587 JLINK_HasError()
T411C 000:728.633 JLINK_IsHalted()
T411C 000:729.183 - 0.567ms returns FALSE
T411C 000:729.234 JLINK_HasError()
T411C 000:730.997 JLINK_IsHalted()
T411C 000:731.603 - 0.623ms returns FALSE
T411C 000:731.644 JLINK_HasError()
T411C 000:732.970 JLINK_IsHalted()
T411C 000:733.516 - 0.550ms returns FALSE
T411C 000:733.525 JLINK_HasError()
T411C 000:734.963 JLINK_IsHalted()
T411C 000:738.329   CPU_ReadMem(2 bytes @ 0x20000000)
T411C 000:738.849 - 3.918ms returns TRUE
T411C 000:738.887 JLINK_ReadReg(R15 (PC))
T411C 000:738.893 - 0.008ms returns 0x20000000
T411C 000:738.899 JLINK_ClrBPEx(BPHandle = 0x00000009)
T411C 000:738.904 - 0.007ms returns 0x00
T411C 000:738.909 JLINK_ReadReg(R0)
T411C 000:738.914 - 0.006ms returns 0x00000000
T411C 000:739.305 JLINK_WriteMem(0x20000164, 0x29C Bytes, ...)
T411C 000:739.313   Data:  53 54 6A 46 02 DC 4F F0 30 01 01 E0 4F F0 31 01 ...
T411C 000:739.329   CPU_WriteMem(668 bytes @ 0x20000164)
T411C 000:747.513 - 8.249ms returns 0x29C
T411C 000:747.559 JLINK_WriteMem(0x20000400, 0x164 Bytes, ...)
T411C 000:747.564   Data:  48 EA 06 40 FA E7 70 B5 16 46 0C 46 05 46 FF F7 ...
T411C 000:747.575   CPU_WriteMem(356 bytes @ 0x20000400)
T411C 000:752.258 - 4.705ms returns 0x164
T411C 000:752.270 JLINK_HasError()
T411C 000:752.277 JLINK_WriteReg(R0, 0x08001400)
T411C 000:752.285 - 0.009ms returns 0
T411C 000:752.290 JLINK_WriteReg(R1, 0x00000400)
T411C 000:752.295 - 0.007ms returns 0
T411C 000:752.301 JLINK_WriteReg(R2, 0x20000164)
T411C 000:752.306 - 0.007ms returns 0
T411C 000:752.311 JLINK_WriteReg(R3, 0x00000000)
T411C 000:752.316 - 0.006ms returns 0
T411C 000:752.321 JLINK_WriteReg(R4, 0x00000000)
T411C 000:752.326 - 0.006ms returns 0
T411C 000:752.331 JLINK_WriteReg(R5, 0x00000000)
T411C 000:752.339 - 0.012ms returns 0
T411C 000:752.347 JLINK_WriteReg(R6, 0x00000000)
T411C 000:752.352 - 0.006ms returns 0
T411C 000:752.357 JLINK_WriteReg(R7, 0x00000000)
T411C 000:752.362 - 0.006ms returns 0
T411C 000:752.367 JLINK_WriteReg(R8, 0x00000000)
T411C 000:752.372 - 0.006ms returns 0
T411C 000:752.377 JLINK_WriteReg(R9, 0x20000160)
T411C 000:752.382 - 0.006ms returns 0
T411C 000:752.387 JLINK_WriteReg(R10, 0x00000000)
T411C 000:752.392 - 0.006ms returns 0
T411C 000:752.398 JLINK_WriteReg(R11, 0x00000000)
T411C 000:752.402 - 0.006ms returns 0
T411C 000:752.408 JLINK_WriteReg(R12, 0x00000000)
T411C 000:752.412 - 0.006ms returns 0
T411C 000:752.418 JLINK_WriteReg(R13 (SP), 0x20001000)
T411C 000:752.423 - 0.007ms returns 0
T411C 000:752.428 JLINK_WriteReg(R14, 0x20000001)
T411C 000:752.433 - 0.006ms returns 0
T411C 000:752.438 JLINK_WriteReg(R15 (PC), 0x200000F4)
T411C 000:752.443 - 0.007ms returns 0
T411C 000:752.449 JLINK_WriteReg(XPSR, 0x01000000)
T411C 000:752.453 - 0.006ms returns 0
T411C 000:752.459 JLINK_WriteReg(MSP, 0x20001000)
T411C 000:752.463 - 0.006ms returns 0
T411C 000:752.469 JLINK_WriteReg(PSP, 0x20001000)
T411C 000:752.474 - 0.006ms returns 0
T411C 000:752.479 JLINK_WriteReg(CFBP, 0x00000000)
T411C 000:752.484 - 0.007ms returns 0
T411C 000:752.489 JLINK_SetBPEx(Addr = 0x20000000, Type = 0xFFFFFFF2)
T411C 000:752.495 - 0.008ms returns 0x0000000A
T411C 000:752.501 JLINK_Go()
T411C 000:752.511   CPU_ReadMem(4 bytes @ 0xE0001000)
T411C 000:756.325 - 3.830ms
T411C 000:756.338 JLINK_IsHalted()
T411C 000:756.924 - 0.592ms returns FALSE
T411C 000:756.937 JLINK_HasError()
T411C 001:529.936 JLINK_IsHalted()
T411C 001:533.280   CPU_ReadMem(2 bytes @ 0x20000000)
T411C 001:533.910 - 3.979ms returns TRUE
T411C 001:533.922 JLINK_ReadReg(R15 (PC))
T411C 001:533.931 - 0.010ms returns 0x20000000
T411C 001:533.937 JLINK_ClrBPEx(BPHandle = 0x0000000A)
T411C 001:533.942 - 0.007ms returns 0x00
T411C 001:533.948 JLINK_ReadReg(R0)
T411C 001:533.953 - 0.007ms returns 0x00000000
T411C 001:534.637 JLINK_WriteMem(0x20000164, 0x29C Bytes, ...)
T411C 001:534.649   Data:  02 D5 64 42 01 20 00 E0 00 20 DF F8 98 A0 80 46 ...
T411C 001:534.663   CPU_WriteMem(668 bytes @ 0x20000164)
T411C 001:542.839 - 8.239ms returns 0x29C
T411C 001:542.882 JLINK_WriteMem(0x20000400, 0x164 Bytes, ...)
T411C 001:542.887   Data:  89 00 0C F1 02 0C CB 0F 04 BF 49 00 0C F1 01 0C ...
T411C 001:542.899   CPU_WriteMem(356 bytes @ 0x20000400)
T411C 001:547.558 - 4.681ms returns 0x164
T411C 001:547.571 JLINK_HasError()
T411C 001:547.577 JLINK_WriteReg(R0, 0x08001800)
T411C 001:547.584 - 0.009ms returns 0
T411C 001:547.590 JLINK_WriteReg(R1, 0x00000400)
T411C 001:547.594 - 0.007ms returns 0
T411C 001:547.600 JLINK_WriteReg(R2, 0x20000164)
T411C 001:547.605 - 0.007ms returns 0
T411C 001:547.645 JLINK_WriteReg(R3, 0x00000000)
T411C 001:547.651 - 0.008ms returns 0
T411C 001:547.656 JLINK_WriteReg(R4, 0x00000000)
T411C 001:547.661 - 0.007ms returns 0
T411C 001:547.667 JLINK_WriteReg(R5, 0x00000000)
T411C 001:547.671 - 0.006ms returns 0
T411C 001:547.677 JLINK_WriteReg(R6, 0x00000000)
T411C 001:547.681 - 0.006ms returns 0
T411C 001:547.687 JLINK_WriteReg(R7, 0x00000000)
T411C 001:547.691 - 0.006ms returns 0
T411C 001:547.697 JLINK_WriteReg(R8, 0x00000000)
T411C 001:547.701 - 0.006ms returns 0
T411C 001:547.707 JLINK_WriteReg(R9, 0x20000160)
T411C 001:547.712 - 0.006ms returns 0
T411C 001:547.717 JLINK_WriteReg(R10, 0x00000000)
T411C 001:547.722 - 0.007ms returns 0
T411C 001:547.727 JLINK_WriteReg(R11, 0x00000000)
T411C 001:547.732 - 0.006ms returns 0
T411C 001:547.737 JLINK_WriteReg(R12, 0x00000000)
T411C 001:547.742 - 0.006ms returns 0
T411C 001:547.747 JLINK_WriteReg(R13 (SP), 0x20001000)
T411C 001:547.752 - 0.007ms returns 0
T411C 001:547.758 JLINK_WriteReg(R14, 0x20000001)
T411C 001:547.762 - 0.006ms returns 0
T411C 001:547.768 JLINK_WriteReg(R15 (PC), 0x200000F4)
T411C 001:547.773 - 0.007ms returns 0
T411C 001:547.778 JLINK_WriteReg(XPSR, 0x01000000)
T411C 001:547.787 - 0.013ms returns 0
T411C 001:547.794 JLINK_WriteReg(MSP, 0x20001000)
T411C 001:547.799 - 0.006ms returns 0
T411C 001:547.805 JLINK_WriteReg(PSP, 0x20001000)
T411C 001:547.809 - 0.007ms returns 0
T411C 001:547.815 JLINK_WriteReg(CFBP, 0x00000000)
T411C 001:547.819 - 0.006ms returns 0
T411C 001:547.825 JLINK_SetBPEx(Addr = 0x20000000, Type = 0xFFFFFFF2)
T411C 001:547.831 - 0.008ms returns 0x0000000B
T411C 001:547.836 JLINK_Go()
T411C 001:547.847   CPU_ReadMem(4 bytes @ 0xE0001000)
T411C 001:551.522 - 3.692ms
T411C 001:551.533 JLINK_IsHalted()
T411C 001:551.971 - 0.441ms returns FALSE
T411C 001:551.979 JLINK_HasError()
T411C 001:554.833 JLINK_IsHalted()
T411C 001:555.331 - 0.502ms returns FALSE
T411C 001:555.340 JLINK_HasError()
T411C 001:557.070 JLINK_IsHalted()
T411C 001:557.633 - 0.567ms returns FALSE
T411C 001:557.641 JLINK_HasError()
T411C 001:560.070 JLINK_IsHalted()
T411C 001:560.561 - 0.495ms returns FALSE
T411C 001:560.569 JLINK_HasError()
T411C 001:562.528 JLINK_IsHalted()
T411C 001:563.126 - 0.601ms returns FALSE
T411C 001:563.134 JLINK_HasError()
T411C 001:564.528 JLINK_IsHalted()
T411C 001:565.070 - 0.546ms returns FALSE
T411C 001:565.078 JLINK_HasError()
T411C 001:567.521 JLINK_IsHalted()
T411C 001:568.023 - 0.505ms returns FALSE
T411C 001:568.032 JLINK_HasError()
T411C 001:569.601 JLINK_IsHalted()
T411C 001:570.056 - 0.459ms returns FALSE
T411C 001:570.064 JLINK_HasError()
T411C 001:572.006 JLINK_IsHalted()
T411C 001:572.500 - 0.521ms returns FALSE
T411C 001:572.532 JLINK_HasError()
T411C 001:574.044 JLINK_IsHalted()
T411C 001:574.597 - 0.559ms returns FALSE
T411C 001:574.609 JLINK_HasError()
T411C 001:576.655 JLINK_IsHalted()
T411C 001:577.176 - 0.527ms returns FALSE
T411C 001:577.187 JLINK_HasError()
T411C 001:579.238 JLINK_IsHalted()
T411C 001:579.806 - 0.574ms returns FALSE
T411C 001:579.818 JLINK_HasError()
T411C 001:582.234 JLINK_IsHalted()
